10 03 02 25 00 02 D7 39 
1680809491932: M->S ID=16, Fn=3, Addr=549, Len=2, CRC=39D7
10 03 04 3D 00 46 98 C5 54 
1680809491934: S->M ID=16, Fn=3, Cnt=4, CRC=54C5
d[0]=15616
d[1]=18072
10 03 02 21 00 02 96 F8 
1680809492071: M->S ID=16, Fn=3, Addr=545, Len=2, CRC=F896
10 03 04 3B CC 46 98 05 E3 
1680809492074: S->M ID=16, Fn=3, Cnt=4, CRC=E305
d[0]=15308
d[1]=18072
10 03 02 1F 00 02 F7 34 
1680809492212: M->S ID=16, Fn=3, Addr=543, Len=2, CRC=34F7
10 03 04 3B 32 46 98 64 13 
1680809492214: S->M ID=16, Fn=3, Cnt=4, CRC=1364
d[0]=15154
d[1]=18072
10 03 02 1D 00 02 56 F4 
1680809492371: M->S ID=16, Fn=3, Addr=541, Len=2, CRC=F456
10 03 04 3A 98 46 98 45 CF 
1680809492374: S->M ID=16, Fn=3, Cnt=4, CRC=CF45
d[0]=15000
d[1]=18072
10 03 02 1B 00 02 B6 F5 
1680809492522: M->S ID=16, Fn=3, Addr=539, Len=2, CRC=F5B6
10 03 04 39 FE 46 98 A5 94 
1680809492524: S->M ID=16, Fn=3, Cnt=4, CRC=94A5
d[0]=14846
d[1]=18072
10 03 02 19 00 02 17 35 
1680809492862: M->S ID=16, Fn=3, Addr=537, Len=2, CRC=3517
10 03 04 3B 64 46 98 84 03 
1680809492864: S->M ID=16, Fn=3, Cnt=4, CRC=0384
d[0]=15204
d[1]=18072
10 03 02 17 00 02 76 F6 
1680809493022: M->S ID=16, Fn=3, Addr=535, Len=2, CRC=F676
10 03 04 3A CA 46 98 E4 1E 
1680809493024: S->M ID=16, Fn=3, Cnt=4, CRC=1EE4
d[0]=15050
d[1]=18072
10 03 02 15 00 02 D7 36 
1680809493172: M->S ID=16, Fn=3, Addr=533, Len=2, CRC=36D7
10 03 04 3A 30 46 98 C4 2F 
1680809493174: S->M ID=16, Fn=3, Cnt=4, CRC=2FC4
d[0]=14896
d[1]=18072
10 03 02 12 00 02 66 F7 
1680809493342: M->S ID=16, Fn=3, Addr=530, Len=2, CRC=F766
10 03 04 39 96 46 98 24 48 
1680809493344: S->M ID=16, Fn=3, Cnt=4, CRC=4824
d[0]=14742
d[1]=18072
10 03 02 10 00 02 C7 37 
1680809493492: M->S ID=16, Fn=3, Addr=528, Len=2, CRC=37C7
10 03 04 39 30 46 98 C4 6B 
1680809493494: S->M ID=16, Fn=3, Cnt=4, CRC=6BC4
d[0]=14640
d[1]=18072
10 03 02 0E 00 02 A7 31 
1680809493662: M->S ID=16, Fn=3, Addr=526, Len=2, CRC=31A7
10 03 04 38 CA 46 98 E5 A6 
1680809493664: S->M ID=16, Fn=3, Cnt=4, CRC=A6E5
d[0]=14538
d[1]=18072
10 03 02 0C 00 02 06 F1 
1680809493782: M->S ID=16, Fn=3, Addr=524, Len=2, CRC=F106
10 03 04 3A 64 46 98 85 FF 
1680809493784: S->M ID=16, Fn=3, Cnt=4, CRC=FF85
d[0]=14948
d[1]=18072
10 03 02 0A 00 02 E6 F0 
1680809493932: M->S ID=16, Fn=3, Addr=522, Len=2, CRC=F0E6
10 03 04 39 FE 46 98 A5 94 
1680809493934: S->M ID=16, Fn=3, Cnt=4, CRC=94A5
d[0]=14846
d[1]=18072
10 03 02 08 00 02 47 30 
1680809494102: M->S ID=16, Fn=3, Addr=520, Len=2, CRC=3047
10 03 04 39 98 46 98 45 8B 
1680809494104: S->M ID=16, Fn=3, Cnt=4, CRC=8B45
d[0]=14744
d[1]=18072
10 03 02 06 00 02 26 F3 
1680809494312: M->S ID=16, Fn=3, Addr=518, Len=2, CRC=F326
10 03 04 39 32 46 98 65 AB 
1680809494314: S->M ID=16, Fn=3, Cnt=4, CRC=AB65
d[0]=14642
d[1]=18072
10 03 02 04 00 02 87 33 
1680809494562: M->S ID=16, Fn=3, Addr=516, Len=2, CRC=3387
10 03 04 38 CC 46 98 05 A7 
1680809494564: S->M ID=16, Fn=3, Cnt=4, CRC=A705
d[0]=14540
d[1]=18072
10 03 02 02 00 02 67 32 
1680809494742: M->S ID=16, Fn=3, Addr=514, Len=2, CRC=3267
10 03 04 3A 66 46 98 24 3F 
1680809494744: S->M ID=16, Fn=3, Cnt=4, CRC=3F24
d[0]=14950
d[1]=18072
10 03 02 00 00 02 C6 F2 
1680809494902: M->S ID=16, Fn=3, Addr=512, Len=2, CRC=F2C6
10 03 04 3A 00 46 98 C4 20 
1680809494904: S->M ID=16, Fn=3, Cnt=4, CRC=20C4
d[0]=14848
d[1]=18072
10 03 02 2A 00 01 A7 3B 
1680809495102: M->S ID=16, Fn=3, Addr=554, Len=1, CRC=3BA7
10 03 02 28 00 5A 47 
1680809495104: S->M ID=16, Fn=3, Cnt=2, CRC=475A
d[0]=10240
10 03 02 27 00 02 76 F9 
1680809495252: M->S ID=16, Fn=3, Addr=551, Len=2, CRC=F976
10 03 04 43 9A 46 98 FD 53 
1680809495254: S->M ID=16, Fn=3, Cnt=4, CRC=53FD
d[0]=17306
d[1]=18072
10 03 02 23 00 02 37 38 
1680809495412: M->S ID=16, Fn=3, Addr=547, Len=2, CRC=3837
10 03 04 42 66 46 98 3C 9F 
1680809495414: S->M ID=16, Fn=3, Cnt=4, CRC=9F3C
d[0]=16998
d[1]=18072
10 03 02 25 00 02 D7 39 
1680809495582: M->S ID=16, Fn=3, Addr=549, Len=2, CRC=39D7
10 03 04 43 00 46 98 DD 7C 
1680809495584: S->M ID=16, Fn=3, Cnt=4, CRC=7CDD
d[0]=17152
d[1]=18072
10 03 02 21 00 02 96 F8 
1680809495762: M->S ID=16, Fn=3, Addr=545, Len=2, CRC=F896
10 03 04 43 CC 46 98 1D 43 
1680809495764: S->M ID=16, Fn=3, Cnt=4, CRC=431D
d[0]=17356
d[1]=18072
10 03 02 1F 00 02 F7 34 
1680809495922: M->S ID=16, Fn=3, Addr=543, Len=2, CRC=34F7
10 03 04 43 32 46 98 7C B3 
1680809495924: S->M ID=16, Fn=3, Cnt=4, CRC=B37C
d[0]=17202
d[1]=18072
10 03 02 1D 00 02 56 F4 
1680809496092: M->S ID=16, Fn=3, Addr=541, Len=2, CRC=F456
10 03 04 42 98 46 98 5D 6F 
1680809496094: S->M ID=16, Fn=3, Cnt=4, CRC=6F5D
d[0]=17048
d[1]=18072
10 03 02 1B 00 02 B6 F5 
1680809496242: M->S ID=16, Fn=3, Addr=539, Len=2, CRC=F5B6
10 03 04 41 FE 46 98 BD 34 
1680809496244: S->M ID=16, Fn=3, Cnt=4, CRC=34BD
d[0]=16894
d[1]=18072
10 03 02 19 00 02 17 35 
1680809496392: M->S ID=16, Fn=3, Addr=537, Len=2, CRC=3517
10 03 04 41 64 46 98 9D 1B 
1680809496394: S->M ID=16, Fn=3, Cnt=4, CRC=1B9D
d[0]=16740
d[1]=18072
10 03 02 17 00 02 76 F6 
1680809496541: M->S ID=16, Fn=3, Addr=535, Len=2, CRC=F676
10 03 04 40 CA 46 98 FD 06 
1680809496544: S->M ID=16, Fn=3, Cnt=4, CRC=06FD
d[0]=16586
d[1]=18072
10 03 02 15 00 02 D7 36 
1680809496702: M->S ID=16, Fn=3, Addr=533, Len=2, CRC=36D7
10 03 04 42 30 46 98 DC 8F 
1680809496704: S->M ID=16, Fn=3, Cnt=4, CRC=8FDC
d[0]=16944
d[1]=18072
10 03 02 12 00 02 66 F7 
1680809496842: M->S ID=16, Fn=3, Addr=530, Len=2, CRC=F766
10 03 04 41 96 46 98 3C E8 
1680809496844: S->M ID=16, Fn=3, Cnt=4, CRC=E83C
d[0]=16790
d[1]=18072
10 03 02 10 00 02 C7 37 
1680809497002: M->S ID=16, Fn=3, Addr=528, Len=2, CRC=37C7
10 03 04 41 30 46 98 DC CB 
1680809497004: S->M ID=16, Fn=3, Cnt=4, CRC=CBDC
d[0]=16688
d[1]=18072
10 03 02 0E 00 02 A7 31 
1680809497152: M->S ID=16, Fn=3, Addr=526, Len=2, CRC=31A7
10 03 04 40 CA 46 98 FD 06 
1680809497154: S->M ID=16, Fn=3, Cnt=4, CRC=06FD
d[0]=16586
d[1]=18072
10 03 02 0C 00 02 06 F1 
1680809497301: M->S ID=16, Fn=3, Addr=524, Len=2, CRC=F106
10 03 04 40 64 46 98 9C E7 
1680809497304: S->M ID=16, Fn=3, Cnt=4, CRC=E79C
d[0]=16484
d[1]=18072
10 03 02 0A 00 02 E6 F0 
1680809497442: M->S ID=16, Fn=3, Addr=522, Len=2, CRC=F0E6
10 03 04 3F FE 46 98 A5 1C 
1680809497444: S->M ID=16, Fn=3, Cnt=4, CRC=1CA5
d[0]=16382
d[1]=18072
10 03 02 08 00 02 47 30 
1680809497602: M->S ID=16, Fn=3, Addr=520, Len=2, CRC=3047
10 03 04 3F 98 46 98 45 03 
1680809497604: S->M ID=16, Fn=3, Cnt=4, CRC=0345
d[0]=16280
d[1]=18072
10 03 02 06 00 02 26 F3 
1680809497752: M->S ID=16, Fn=3, Addr=518, Len=2, CRC=F326
10 03 04 41 32 46 98 7D 0B 
1680809497754: S->M ID=16, Fn=3, Cnt=4, CRC=0B7D
d[0]=16690
d[1]=18072
10 03 02 04 00 02 87 33 
1680809497912: M->S ID=16, Fn=3, Addr=516, Len=2, CRC=3387
10 03 04 40 CC 46 98 1D 07 
1680809497914: S->M ID=16, Fn=3, Cnt=4, CRC=071D
d[0]=16588
d[1]=18072
10 03 02 02 00 02 67 32 
1680809498042: M->S ID=16, Fn=3, Addr=514, Len=2, CRC=3267
10 03 04 40 66 46 98 3D 27 
1680809498044: S->M ID=16, Fn=3, Cnt=4, CRC=273D
d[0]=16486
d[1]=18072
10 03 02 00 00 02 C6 F2 
1680809498202: M->S ID=16, Fn=3, Addr=512, Len=2, CRC=F2C6
10 03 04 40 00 46 98 DD 38 
1680809498204: S->M ID=16, Fn=3, Cnt=4, CRC=38DD
d[0]=16384
d[1]=18072
10 03 02 2A 00 01 A7 3B 
1680809498482: M->S ID=16, Fn=3, Addr=554, Len=1, CRC=3BA7
10 03 02 28 00 5A 47 
1680809498483: S->M ID=16, Fn=3, Cnt=2, CRC=475A
d[0]=10240
10 03 02 27 00 02 76 F9 
1680809498642: M->S ID=16, Fn=3, Addr=551, Len=2, CRC=F976
10 03 04 49 9A 46 98 FE 8B 
1680809498644: S->M ID=16, Fn=3, Cnt=4, CRC=8BFE
d[0]=18842
d[1]=18072
10 03 02 23 00 02 37 38 
1680809498802: M->S ID=16, Fn=3, Addr=547, Len=2, CRC=3837
10 03 04 4A 66 46 98 3E FF 
1680809498803: S->M ID=16, Fn=3, Cnt=4, CRC=FF3E
d[0]=19046
d[1]=18072
10 03 02 25 00 02 D7 39 
1680809498952: M->S ID=16, Fn=3, Addr=549, Len=2, CRC=39D7
10 03 04 4B 00 46 98 DF 1C 
1680809498954: S->M ID=16, Fn=3, Cnt=4, CRC=1CDF
d[0]=19200
d[1]=18072
10 03 02 21 00 02 96 F8 
1680809499192: M->S ID=16, Fn=3, Addr=545, Len=2, CRC=F896
10 03 04 49 CC 46 98 1E 9B 
1680809499193: S->M ID=16, Fn=3, Cnt=4, CRC=9B1E
d[0]=18892
d[1]=18072
10 03 02 1F 00 02 F7 34 
1680809499362: M->S ID=16, Fn=3, Addr=543, Len=2, CRC=34F7
10 03 04 49 32 46 98 7F 6B 
1680809499363: S->M ID=16, Fn=3, Cnt=4, CRC=6B7F
d[0]=18738
d[1]=18072
10 03 02 1D 00 02 56 F4 
1680809499502: M->S ID=16, Fn=3, Addr=541, Len=2, CRC=F456
10 03 04 48 98 46 98 5E B7 
1680809499503: S->M ID=16, Fn=3, Cnt=4, CRC=B75E
d[0]=18584
d[1]=18072
10 03 02 1B 00 02 B6 F5 
1680809499662: M->S ID=16, Fn=3, Addr=539, Len=2, CRC=F5B6
10 03 04 47 FE 46 98 BD BC 
1680809499663: S->M ID=16, Fn=3, Cnt=4, CRC=BCBD
d[0]=18430
d[1]=18072
10 03 02 19 00 02 17 35 
1680809499802: M->S ID=16, Fn=3, Addr=537, Len=2, CRC=3517
10 03 04 49 64 46 98 9F 7B 
1680809499803: S->M ID=16, Fn=3, Cnt=4, CRC=7B9F
d[0]=18788
d[1]=18072
10 03 02 17 00 02 76 F6 
1680809499952: M->S ID=16, Fn=3, Addr=535, Len=2, CRC=F676
10 03 04 48 CA 46 98 FF 66 
1680809499953: S->M ID=16, Fn=3, Cnt=4, CRC=66FF
d[0]=18634
d[1]=18072
10 03 02 15 00 02 D7 36 
1680809500112: M->S ID=16, Fn=3, Addr=533, Len=2, CRC=36D7
10 03 04 48 30 46 98 DF 57 
1680809500113: S->M ID=16, Fn=3, Cnt=4, CRC=57DF
d[0]=18480
d[1]=18072
10 03 02 12 00 02 66 F7 
1680809500251: M->S ID=16, Fn=3, Addr=530, Len=2, CRC=F766
10 03 04 47 96 46 98 3C 60 
1680809500253: S->M ID=16, Fn=3, Cnt=4, CRC=603C
d[0]=18326
d[1]=18072
10 03 02 10 00 02 C7 37 
1680809500432: M->S ID=16, Fn=3, Addr=528, Len=2, CRC=37C7
10 03 04 47 30 46 98 DC 43 
1680809500434: S->M ID=16, Fn=3, Cnt=4, CRC=43DC
d[0]=18224
d[1]=18072
10 03 02 0E 00 02 A7 31 
1680809500582: M->S ID=16, Fn=3, Addr=526, Len=2, CRC=31A7
10 03 04 46 CA 46 98 FD 8E 
1680809500584: S->M ID=16, Fn=3, Cnt=4, CRC=8EFD
d[0]=18122
d[1]=18072
10 03 02 0C 00 02 06 F1 
1680809500722: M->S ID=16, Fn=3, Addr=524, Len=2, CRC=F106
10 03 04 48 64 46 98 9E 87 
1680809500724: S->M ID=16, Fn=3, Cnt=4, CRC=879E
d[0]=18532
d[1]=18072
10 03 02 0A 00 02 E6 F0 
1680809500862: M->S ID=16, Fn=3, Addr=522, Len=2, CRC=F0E6
10 03 04 47 FE 46 98 BD BC 
1680809500864: S->M ID=16, Fn=3, Cnt=4, CRC=BCBD
d[0]=18430
d[1]=18072
10 03 02 08 00 02 47 30 
1680809501002: M->S ID=16, Fn=3, Addr=520, Len=2, CRC=3047
10 03 04 47 98 46 98 5D A3 
1680809501004: S->M ID=16, Fn=3, Cnt=4, CRC=A35D
d[0]=18328
d[1]=18072
10 03 02 06 00 02 26 F3 
1680809501171: M->S ID=16, Fn=3, Addr=518, Len=2, CRC=F326
10 03 04 47 32 46 98 7D 83 
1680809501174: S->M ID=16, Fn=3, Cnt=4, CRC=837D
d[0]=18226
d[1]=18072
10 03 02 04 00 02 87 33 
1680809501322: M->S ID=16, Fn=3, Addr=516, Len=2, CRC=3387
10 03 04 46 CC 46 98 1D 8F 
1680809501324: S->M ID=16, Fn=3, Cnt=4, CRC=8F1D
d[0]=18124
d[1]=18072
10 03 02 02 00 02 67 32 
1680809501482: M->S ID=16, Fn=3, Addr=514, Len=2, CRC=3267
10 03 04 46 66 46 98 3D AF 
1680809501484: S->M ID=16, Fn=3, Cnt=4, CRC=AF3D
d[0]=18022
d[1]=18072
10 03 02 00 00 02 C6 F2 
1680809501631: M->S ID=16, Fn=3, Addr=512, Len=2, CRC=F2C6
10 03 04 46 00 46 98 DD B0 
1680809501634: S->M ID=16, Fn=3, Cnt=4, CRC=B0DD
d[0]=17920
d[1]=18072
10 03 02 2A 00 01 A7 3B 
1680809502822: M->S ID=16, Fn=3, Addr=554, Len=1, CRC=3BA7
10 03 02 28 00 5A 47 
1680809502824: S->M ID=16, Fn=3, Cnt=2, CRC=475A
d[0]=10240
10 03 02 27 00 02 76 F9 
1680809502971: M->S ID=16, Fn=3, Addr=551, Len=2, CRC=F976
10 03 04 53 9A 46 98 F9 93 
1680809502974: S->M ID=16, Fn=3, Cnt=4, CRC=93F9
d[0]=21402
d[1]=18072
10 03 02 23 00 02 37 38 
1680809503121: M->S ID=16, Fn=3, Addr=547, Len=2, CRC=3837
10 03 04 52 66 46 98 38 5F 
1680809503124: S->M ID=16, Fn=3, Cnt=4, CRC=5F38
d[0]=21094
d[1]=18072
10 03 02 25 00 02 D7 39 
1680809503272: M->S ID=16, Fn=3, Addr=549, Len=2, CRC=39D7
10 03 04 53 00 46 98 D9 BC 
1680809503274: S->M ID=16, Fn=3, Cnt=4, CRC=BCD9
d[0]=21248
d[1]=18072
10 03 02 21 00 02 96 F8 
1680809503411: M->S ID=16, Fn=3, Addr=545, Len=2, CRC=F896
10 03 04 51 CC 46 98 18 3B 
1680809503414: S->M ID=16, Fn=3, Cnt=4, CRC=3B18
d[0]=20940
d[1]=18072
10 03 02 1F 00 02 F7 34 
1680809503571: M->S ID=16, Fn=3, Addr=543, Len=2, CRC=34F7
10 03 04 51 32 46 98 79 CB 
1680809503574: S->M ID=16, Fn=3, Cnt=4, CRC=CB79
d[0]=20786
d[1]=18072
10 03 02 1D 00 02 56 F4 
1680809503721: M->S ID=16, Fn=3, Addr=541, Len=2, CRC=F456
10 03 04 52 98 46 98 59 AF 
1680809503724: S->M ID=16, Fn=3, Cnt=4, CRC=AF59
d[0]=21144
d[1]=18072
10 03 02 1B 00 02 B6 F5 
1680809503872: M->S ID=16, Fn=3, Addr=539, Len=2, CRC=F5B6
10 03 04 51 FE 46 98 B9 F4 
1680809503874: S->M ID=16, Fn=3, Cnt=4, CRC=F4B9
d[0]=20990
d[1]=18072
10 03 02 19 00 02 17 35 
1680809504022: M->S ID=16, Fn=3, Addr=537, Len=2, CRC=3517
10 03 04 51 64 46 98 99 DB 
1680809504024: S->M ID=16, Fn=3, Cnt=4, CRC=DB99
d[0]=20836
d[1]=18072
10 03 02 17 00 02 76 F6 
1680809504171: M->S ID=16, Fn=3, Addr=535, Len=2, CRC=F676
10 03 04 50 CA 46 98 F9 C6 
1680809504174: S->M ID=16, Fn=3, Cnt=4, CRC=C6F9
d[0]=20682
d[1]=18072
10 03 02 15 00 02 D7 36 
1680809504321: M->S ID=16, Fn=3, Addr=533, Len=2, CRC=36D7
10 03 04 50 30 46 98 D9 F7 
1680809504324: S->M ID=16, Fn=3, Cnt=4, CRC=F7D9
d[0]=20528
d[1]=18072
10 03 02 12 00 02 66 F7 
1680809504471: M->S ID=16, Fn=3, Addr=530, Len=2, CRC=F766
10 03 04 4F 96 46 98 3E 00 
1680809504474: M->S ID=16, Fn=3, Addr=1103, Len=38470, CRC=3E98
10 03 02 10 00 02 C7 37 
1680809504631: M->S ID=16, Fn=3, Addr=528, Len=2, CRC=37C7
10 03 04 4F 30 46 98 DE 23 
1680809504634: S->M ID=16, Fn=3, Cnt=4, CRC=23DE
d[0]=20272
d[1]=18072
10 03 02 0E 00 02 A7 31 
1680809504782: M->S ID=16, Fn=3, Addr=526, Len=2, CRC=31A7
10 03 04 50 CA 46 98 F9 C6 
1680809504784: S->M ID=16, Fn=3, Cnt=4, CRC=C6F9
d[0]=20682
d[1]=18072
10 03 02 0C 00 02 06 F1 
1680809504931: M->S ID=16, Fn=3, Addr=524, Len=2, CRC=F106
10 03 04 50 64 46 98 98 27 
1680809504934: S->M ID=16, Fn=3, Cnt=4, CRC=2798
d[0]=20580
d[1]=18072
10 03 02 0A 00 02 E6 F0 
1680809505071: M->S ID=16, Fn=3, Addr=522, Len=2, CRC=F0E6
10 03 04 4F FE 46 98 BF DC 
1680809505074: S->M ID=16, Fn=3, Cnt=4, CRC=DCBF
d[0]=20478
d[1]=18072
10 03 02 08 00 02 47 30 
1680809505232: M->S ID=16, Fn=3, Addr=520, Len=2, CRC=3047
10 03 04 4F 98 46 98 5F C3 
1680809505234: S->M ID=16, Fn=3, Cnt=4, CRC=C35F
d[0]=20376
d[1]=18072
10 03 02 06 00 02 26 F3 
1680809505381: M->S ID=16, Fn=3, Addr=518, Len=2, CRC=F326
10 03 04 4F 32 46 98 7F E3 
1680809505384: S->M ID=16, Fn=3, Cnt=4, CRC=E37F
d[0]=20274
d[1]=18072
10 03 02 04 00 02 87 33 
1680809505531: M->S ID=16, Fn=3, Addr=516, Len=2, CRC=3387
10 03 04 4E CC 46 98 1F EF 
1680809505534: S->M ID=16, Fn=3, Cnt=4, CRC=EF1F
d[0]=20172
d[1]=18072
10 03 02 02 00 02 67 32 
1680809505682: M->S ID=16, Fn=3, Addr=514, Len=2, CRC=3267
10 03 04 4E 66 46 98 3F CF 
1680809505684: S->M ID=16, Fn=3, Cnt=4, CRC=CF3F
d[0]=20070
d[1]=18072
10 03 02 00 00 02 C6 F2 
1680809505881: M->S ID=16, Fn=3, Addr=512, Len=2, CRC=F2C6
10 03 04 50 00 46 98 D9 F8 
1680809505884: S->M ID=16, Fn=3, Cnt=4, CRC=F8D9
d[0]=20480
d[1]=18072
10 03 04 02 00 01 27 BB 
1680809506081: M->S ID=16, Fn=3, Addr=1026, Len=1, CRC=BB27
10 03 02 00 16 C5 89 
1680809506084: S->M ID=16, Fn=3, Cnt=2, CRC=89C5
d[0]=22
10 03 04 02 00 01 27 BB 
1680809506232: M->S ID=16, Fn=3, Addr=1026, Len=1, CRC=BB27
10 03 02 00 16 C5 89 
1680809506234: S->M ID=16, Fn=3, Cnt=2, CRC=89C5
d[0]=22
10 03 04 01 00 01 D7 BB 
1680809506432: M->S ID=16, Fn=3, Addr=1025, Len=1, CRC=BBD7
10 03 02 00 1F 05 8F 
1680809506434: S->M ID=16, Fn=3, Cnt=2, CRC=8F05
d[0]=31
10 03 04 00 00 01 86 7B 
1680809506662: M->S ID=16, Fn=3, Addr=1024, Len=1, CRC=7B86
10 03 02 00 24 44 5C 
1680809506664: S->M ID=16, Fn=3, Cnt=2, CRC=5C44
d[0]=36
03 03 02 00 00 01 84 50 
1680809506782: M->S ID=3, Fn=3, Addr=512, Len=1, CRC=5084
03 03 02 00 00 C1 84 
1680809506785: S->M ID=3, Fn=3, Cnt=2, CRC=84C1
d[0]=0
01 03 02 01 00 01 D4 72 
1680809506931: M->S ID=1, Fn=3, Addr=513, Len=1, CRC=72D4
01 03 02 00 00 B8 44 
1680809506935: S->M ID=1, Fn=3, Cnt=2, CRC=44B8
d[0]=0
01 03 02 00 00 01 85 B2 
1680809507081: M->S ID=1, Fn=3, Addr=512, Len=1, CRC=B285
01 03 02 00 00 B8 44 
1680809507085: S->M ID=1, Fn=3, Cnt=2, CRC=44B8
d[0]=0
10 03 04 02 00 01 27 BB 
1680809507291: M->S ID=16, Fn=3, Addr=1026, Len=1, CRC=BB27
10 03 02 00 16 C5 89 
1680809507294: S->M ID=16, Fn=3, Cnt=2, CRC=89C5
d[0]=22
10 03 04 02 00 01 27 BB 
1680809507441: M->S ID=16, Fn=3, Addr=1026, Len=1, CRC=BB27
10 03 02 00 16 C5 89 
1680809507444: S->M ID=16, Fn=3, Cnt=2, CRC=89C5
d[0]=22
10 03 04 01 00 01 D7 BB 
1680809507581: M->S ID=16, Fn=3, Addr=1025, Len=1, CRC=BBD7
10 03 02 00 1F 05 8F 
1680809507584: S->M ID=16, Fn=3, Cnt=2, CRC=8F05
d[0]=31
10 03 04 00 00 01 86 7B 
1680809507731: M->S ID=16, Fn=3, Addr=1024, Len=1, CRC=7B86
10 03 02 00 24 44 5C 
1680809507734: S->M ID=16, Fn=3, Cnt=2, CRC=5C44
d[0]=36
03 03 02 00 00 01 84 50 
1680809507882: M->S ID=3, Fn=3, Addr=512, Len=1, CRC=5084
03 03 02 00 00 C1 84 
1680809507885: S->M ID=3, Fn=3, Cnt=2, CRC=84C1
d[0]=0
01 03 02 01 00 01 D4 72 
1680809508041: M->S ID=1, Fn=3, Addr=513, Len=1, CRC=72D4
01 03 02 00 00 B8 44 
1680809508045: S->M ID=1, Fn=3, Cnt=2, CRC=44B8
d[0]=0
01 03 02 00 00 01 85 B2 
1680809508202: M->S ID=1, Fn=3, Addr=512, Len=1, CRC=B285
01 03 02 00 00 B8 44 
1680809508304: S->M ID=1, Fn=3, Cnt=2, CRC=44B8
d[0]=0
10 03 04 02 00 01 27 BB 
1680809508811: M->S ID=16, Fn=3, Addr=1026, Len=1, CRC=BB27
10 03 02 00 16 C5 89 
1680809508814: S->M ID=16, Fn=3, Cnt=2, CRC=89C5
d[0]=22
10 03 04 02 00 01 27 BB 
1680809508962: M->S ID=16, Fn=3, Addr=1026, Len=1, CRC=BB27
10 03 02 00 16 C5 89 
1680809508964: S->M ID=16, Fn=3, Cnt=2, CRC=89C5
d[0]=22
10 03 04 01 00 01 D7 BB 
1680809509091: M->S ID=16, Fn=3, Addr=1025, Len=1, CRC=BBD7
10 03 02 00 1F 05 8F 
1680809509094: S->M ID=16, Fn=3, Cnt=2, CRC=8F05
d[0]=31
10 03 04 00 00 01 86 7B 
1680809509242: M->S ID=16, Fn=3, Addr=1024, Len=1, CRC=7B86
10 03 02 00 27 04 5D 
1680809509244: S->M ID=16, Fn=3, Cnt=2, CRC=5D04
d[0]=39
03 03 02 00 00 01 84 50 
1680809509392: M->S ID=3, Fn=3, Addr=512, Len=1, CRC=5084
03 03 02 00 00 C1 84 
1680809509395: S->M ID=3, Fn=3, Cnt=2, CRC=84C1
d[0]=0
01 03 02 01 00 01 D4 72 
1680809509541: M->S ID=1, Fn=3, Addr=513, Len=1, CRC=72D4
01 03 02 00 00 B8 44 
1680809509545: S->M ID=1, Fn=3, Cnt=2, CRC=44B8
d[0]=0
01 03 02 00 00 01 85 B2 
1680809509701: M->S ID=1, Fn=3, Addr=512, Len=1, CRC=B285
01 03 02 00 00 B8 44 
1680809509804: S->M ID=1, Fn=3, Cnt=2, CRC=44B8
d[0]=0
10 03 04 02 00 01 27 BB 
1680809510301: M->S ID=16, Fn=3, Addr=1026, Len=1, CRC=BB27
10 03 02 00 16 C5 89 
1680809510303: S->M ID=16, Fn=3, Cnt=2, CRC=89C5
d[0]=22
10 03 04 02 00 01 27 BB 
1680809510481: M->S ID=16, Fn=3, Addr=1026, Len=1, CRC=BB27
10 03 02 00 16 C5 89 
1680809510483: S->M ID=16, Fn=3, Cnt=2, CRC=89C5
d[0]=22
10 03 04 01 00 01 D7 BB 
1680809510631: M->S ID=16, Fn=3, Addr=1025, Len=1, CRC=BBD7
10 03 02 00 1F 05 8F 
1680809510633: S->M ID=16, Fn=3, Cnt=2, CRC=8F05
d[0]=31
10 03 04 00 00 01 86 7B 
1680809510822: M->S ID=16, Fn=3, Addr=1024, Len=1, CRC=7B86
10 03 02 00 27 04 5D 
1680809510823: S->M ID=16, Fn=3, Cnt=2, CRC=5D04
d[0]=39
03 03 02 00 00 01 84 50 
1680809510971: M->S ID=3, Fn=3, Addr=512, Len=1, CRC=5084
03 03 02 00 00 C1 84 
1680809510975: S->M ID=3, Fn=3, Cnt=2, CRC=84C1
d[0]=0
01 03 02 01 00 01 D4 72 
1680809511101: M->S ID=1, Fn=3, Addr=513, Len=1, CRC=72D4
01 03 02 00 00 B8 44 
1680809511105: S->M ID=1, Fn=3, Cnt=2, CRC=44B8
d[0]=0
01 03 02 00 00 01 85 B2 
1680809511251: M->S ID=1, Fn=3, Addr=512, Len=1, CRC=B285
01 03 02 00 00 B8 44 
1680809511255: S->M ID=1, Fn=3, Cnt=2, CRC=44B8
d[0]=0
10 03 02 2A 00 01 A7 3B 
1680809511461: M->S ID=16, Fn=3, Addr=554, Len=1, CRC=3BA7
10 03 02 28 00 5A 47 
1680809511463: S->M ID=16, Fn=3, Cnt=2, CRC=475A
d[0]=10240
10 03 02 27 00 02 76 F9 
1680809511601: M->S ID=16, Fn=3, Addr=551, Len=2, CRC=F976
10 03 04 63 9A 46 98 F6 93 
1680809511603: S->M ID=16, Fn=3, Cnt=4, CRC=93F6
d[0]=25498
d[1]=18072
10 03 02 23 00 02 37 38 
1680809511761: M->S ID=16, Fn=3, Addr=547, Len=2, CRC=3837
10 03 04 64 66 46 98 37 D7 
1680809511764: S->M ID=16, Fn=3, Cnt=4, CRC=D737
d[0]=25702
d[1]=18072
10 03 02 25 00 02 D7 39 
1680809511902: M->S ID=16, Fn=3, Addr=549, Len=2, CRC=39D7
10 03 04 65 00 46 98 D6 34 
1680809511903: S->M ID=16, Fn=3, Cnt=4, CRC=34D6
d[0]=25856
d[1]=18072
10 03 02 21 00 02 96 F8 
1680809512051: M->S ID=16, Fn=3, Addr=545, Len=2, CRC=F896
10 03 04 63 CC 46 98 16 83 
1680809512054: S->M ID=16, Fn=3, Cnt=4, CRC=8316
d[0]=25548
d[1]=18072
10 03 02 1F 00 02 F7 34 
1680809512212: M->S ID=16, Fn=3, Addr=543, Len=2, CRC=34F7
10 03 04 63 32 46 98 77 73 
1680809512214: S->M ID=16, Fn=3, Cnt=4, CRC=7377
d[0]=25394
d[1]=18072
10 03 02 1D 00 02 56 F4 
1680809512361: M->S ID=16, Fn=3, Addr=541, Len=2, CRC=F456
10 03 04 62 98 46 98 56 AF 
1680809512363: S->M ID=16, Fn=3, Cnt=4, CRC=AF56
d[0]=25240
d[1]=18072
10 03 02 1B 00 02 B6 F5 
1680809512521: M->S ID=16, Fn=3, Addr=539, Len=2, CRC=F5B6
10 03 04 61 FE 46 98 B6 F4 
1680809512523: S->M ID=16, Fn=3, Cnt=4, CRC=F4B6
d[0]=25086
d[1]=18072
10 03 02 19 00 02 17 35 
1680809512872: M->S ID=16, Fn=3, Addr=537, Len=2, CRC=3517
10 03 04 63 64 46 98 97 63 
1680809512873: S->M ID=16, Fn=3, Cnt=4, CRC=6397
d[0]=25444
d[1]=18072
10 03 02 17 00 02 76 F6 
1680809513031: M->S ID=16, Fn=3, Addr=535, Len=2, CRC=F676
10 03 04 62 CA 46 98 F7 7E 
1680809513033: S->M ID=16, Fn=3, Cnt=4, CRC=7EF7
d[0]=25290
d[1]=18072
10 03 02 15 00 02 D7 36 
1680809513161: M->S ID=16, Fn=3, Addr=533, Len=2, CRC=36D7
10 03 04 62 30 46 98 D7 4F 
1680809513163: S->M ID=16, Fn=3, Cnt=4, CRC=4FD7
d[0]=25136
d[1]=18072
10 03 02 12 00 02 66 F7 
1680809513311: M->S ID=16, Fn=3, Addr=530, Len=2, CRC=F766
10 03 04 61 96 46 98 37 28 
1680809513313: S->M ID=16, Fn=3, Cnt=4, CRC=2837
d[0]=24982
d[1]=18072
10 03 02 10 00 02 C7 37 
1680809513471: M->S ID=16, Fn=3, Addr=528, Len=2, CRC=37C7
10 03 04 61 30 46 98 D7 0B 
1680809513473: S->M ID=16, Fn=3, Cnt=4, CRC=0BD7
d[0]=24880
d[1]=18072
10 03 02 0E 00 02 A7 31 
1680809513622: M->S ID=16, Fn=3, Addr=526, Len=2, CRC=31A7
10 03 04 60 CA 46 98 F6 C6 
1680809513623: S->M ID=16, Fn=3, Cnt=4, CRC=C6F6
d[0]=24778
d[1]=18072
10 03 02 0C 00 02 06 F1 
1680809513771: M->S ID=16, Fn=3, Addr=524, Len=2, CRC=F106
10 03 04 62 64 46 98 96 9F 
1680809513773: S->M ID=16, Fn=3, Cnt=4, CRC=9F96
d[0]=25188
d[1]=18072
10 03 02 0A 00 02 E6 F0 
1680809513921: M->S ID=16, Fn=3, Addr=522, Len=2, CRC=F0E6
10 03 04 61 FE 46 98 B6 F4 
1680809513923: S->M ID=16, Fn=3, Cnt=4, CRC=F4B6
d[0]=25086
d[1]=18072
10 03 02 08 00 02 47 30 
1680809514072: M->S ID=16, Fn=3, Addr=520, Len=2, CRC=3047
10 03 04 61 98 46 98 56 EB 
1680809514074: S->M ID=16, Fn=3, Cnt=4, CRC=EB56
d[0]=24984
d[1]=18072
10 03 02 06 00 02 26 F3 
1680809514211: M->S ID=16, Fn=3, Addr=518, Len=2, CRC=F326
10 03 04 61 32 46 98 76 CB 
1680809514214: S->M ID=16, Fn=3, Cnt=4, CRC=CB76
d[0]=24882
d[1]=18072
10 03 02 04 00 02 87 33 
1680809514361: M->S ID=16, Fn=3, Addr=516, Len=2, CRC=3387
10 03 04 60 CC 46 98 16 C7 
1680809514364: S->M ID=16, Fn=3, Cnt=4, CRC=C716
d[0]=24780
d[1]=18072
10 03 02 02 00 02 67 32 
1680809514551: M->S ID=16, Fn=3, Addr=514, Len=2, CRC=3267
10 03 04 60 66 46 98 36 E7 
1680809514554: S->M ID=16, Fn=3, Cnt=4, CRC=E736
d[0]=24678
d[1]=18072
10 03 02 00 00 02 C6 F2 
1680809514671: M->S ID=16, Fn=3, Addr=512, Len=2, CRC=F2C6
10 03 04 60 00 46 98 D6 F8 
1680809514674: S->M ID=16, Fn=3, Cnt=4, CRC=F8D6
d[0]=24576
d[1]=18072
10 03 02 2A 00 01 A7 3B 
1680809514891: M->S ID=16, Fn=3, Addr=554, Len=1, CRC=3BA7
10 03 02 28 00 5A 47 
1680809514894: S->M ID=16, Fn=3, Cnt=2, CRC=475A
d[0]=10240
10 03 02 27 00 02 76 F9 
1680809515021: M->S ID=16, Fn=3, Addr=551, Len=2, CRC=F976
10 03 04 6B 9A 46 98 F4 F3 
1680809515024: S->M ID=16, Fn=3, Cnt=4, CRC=F3F4
d[0]=27546
d[1]=18072
10 03 02 23 00 02 37 38 
1680809515171: M->S ID=16, Fn=3, Addr=547, Len=2, CRC=3837
10 03 04 6A 66 46 98 35 3F 
1680809515174: S->M ID=16, Fn=3, Cnt=4, CRC=3F35
d[0]=27238
d[1]=18072
10 03 02 25 00 02 D7 39 
1680809515321: M->S ID=16, Fn=3, Addr=549, Len=2, CRC=39D7
10 03 04 6B 00 46 98 D4 DC 
1680809515324: S->M ID=16, Fn=3, Cnt=4, CRC=DCD4
d[0]=27392
d[1]=18072
10 03 02 21 00 02 96 F8 
1680809515471: M->S ID=16, Fn=3, Addr=545, Len=2, CRC=F896
10 03 04 69 CC 46 98 15 5B 
1680809515474: S->M ID=16, Fn=3, Cnt=4, CRC=5B15
d[0]=27084
d[1]=18072
10 03 02 1F 00 02 F7 34 
1680809515622: M->S ID=16, Fn=3, Addr=543, Len=2, CRC=34F7
10 03 04 69 32 46 98 74 AB 
1680809515624: S->M ID=16, Fn=3, Cnt=4, CRC=AB74
d[0]=26930
d[1]=18072
10 03 02 1D 00 02 56 F4 
1680809515781: M->S ID=16, Fn=3, Addr=541, Len=2, CRC=F456
10 03 04 6A 98 46 98 54 CF 
1680809515784: S->M ID=16, Fn=3, Cnt=4, CRC=CF54
d[0]=27288
d[1]=18072
1680809576501: 10 03 02 17 00 02 76 F6 
1680809576504: 10 03 04 E0 CA 46 98 DF 06 
1680809576651: 10 03 02 15 00 02 D7 36 
1680809576654: 10 03 04 E0 30 46 98 FF 37 
1680809576861: 10 03 02 12 00 02 66 F7 
1680809576863: 10 03 04 E1 96 46 98 1E E8 
1680809577011: 10 03 02 10 00 02 C7 37 
1680809577013: 10 03 04 E1 30 46 98 FE CB 
1680809577161: 10 03 02 0E 00 02 A7 31 
1680809577164: 10 03 04 E0 CA 46 98 DF 06 
1680809577321: 10 03 02 0C 00 02 06 F1 
1680809577323: 10 03 04 E0 64 46 98 BE E7 
1680809577441: 10 03 02 0A 00 02 E6 F0 
1680809577443: 10 03 04 DF FE 46 98 92 DC 
1680809577601: 10 03 02 08 00 02 47 30 
1680809577604: 10 03 04 DF 98 46 98 72 C3 
1680809577761: 10 03 02 06 00 02 26 F3 
1680809577763: 10 03 04 E1 32 46 98 5F 0B 
1680809577901: 10 03 02 04 00 02 87 33 
1680809577903: 10 03 04 E0 CC 46 98 3F 07 
1680809578051: 10 03 02 02 00 02 67 32 
1680809578053: 10 03 04 E0 66 46 98 1F 27 
1680809578201: 10 03 02 00 00 02 C6 F2 
1680809578203: 10 03 04 E0 00 46 98 FF 38 
1680809578411: 10 03 02 2A 00 01 A7 3B 
1680809578413: 10 03 02 28 00 5A 47 
1680809578561: 10 03 02 27 00 02 76 F9 
1680809578563: 10 03 04 E9 9A 46 98 DC 8B 
1680809578711: 10 03 02 23 00 02 37 38 
1680809578713: 10 03 04 EA 66 46 98 1C FF 
1680809578901: 10 03 02 25 00 02 D7 39 
1680809578903: 10 03 04 EB 00 46 98 FD 1C 
1680809579081: 10 03 02 21 00 02 96 F8 
1680809579083: 10 03 04 E9 CC 46 98 3C 9B 
1680809579231: 10 03 02 1F 00 02 F7 34 
1680809579233: 10 03 04 E9 32 46 98 5D 6B 
1680809579361: 10 03 02 1D 00 02 56 F4 
1680809579363: 10 03 04 E8 98 46 98 7C B7 
1680809579501: 10 03 02 1B 00 02 B6 F5 
1680809579503: 10 03 04 E7 FE 46 98 9F BC 
1680809579661: 10 03 02 19 00 02 17 35 
1680809579663: 10 03 04 E7 64 46 98 BF 93 
1680809579821: 10 03 02 17 00 02 76 F6 
1680809579823: 10 03 04 E8 CA 46 98 DD 66 
1680809579981: 10 03 02 15 00 02 D7 36 
1680809579983: 10 03 04 E8 30 46 98 FD 57 
1680809580121: 10 03 02 12 00 02 66 F7 
1680809580123: 10 03 04 E7 96 46 98 1E 60 
1680809580281: 10 03 02 10 00 02 C7 37 
1680809580283: 10 03 04 E7 30 46 98 FE 43 
1680809580431: 10 03 02 0E 00 02 A7 31 
1680809580433: 10 03 04 E6 CA 46 98 DF 8E 
1680809580571: 10 03 02 0C 00 02 06 F1 
1680809580573: 10 03 04 E6 64 46 98 BE 6F 
1680809580721: 10 03 02 0A 00 02 E6 F0 
1680809580723: 10 03 04 E7 FE 46 98 9F BC 
1680809580871: 10 03 02 08 00 02 47 30 
1680809580873: 10 03 04 E7 98 46 98 7F A3 
1680809581021: 10 03 02 06 00 02 26 F3 
1680809581023: 10 03 04 E7 32 46 98 5F 83 
1680809581171: 10 03 02 04 00 02 87 33 
1680809581173: 10 03 04 E6 CC 46 98 3F 8F 
1680809581321: 10 03 02 02 00 02 67 32 
1680809581323: 10 03 04 E6 66 46 98 1F AF 
1680809581501: 10 03 02 00 00 02 C6 F2 
1680809581503: 10 03 04 E6 00 46 98 FF B0 
1680809581731: 10 03 02 2A 00 01 A7 3B 
1680809581733: 10 03 02 28 00 5A 47 
1680809581871: 10 03 02 27 00 02 76 F9 
1680809581873: 10 03 04 F1 9A 46 98 DA 2B 
1680809582031: 10 03 02 23 00 02 37 38 
1680809582033: 10 03 04 F0 66 46 98 1B E7 
1680809582201: 10 03 02 25 00 02 D7 39 
1680809582203: 10 03 04 F1 00 46 98 FA 04 
1680809582351: 10 03 02 21 00 02 96 F8 
1680809582353: 10 03 04 EF CC 46 98 3C 13 
1680809582491: 10 03 02 1F 00 02 F7 34 
1680809582493: 10 03 04 EF 32 46 98 5D E3 
1680809582651: 10 03 02 1D 00 02 56 F4 
1680809582653: 10 03 04 EE 98 46 98 7C 3F 
1680809582791: 10 03 02 1B 00 02 B6 F5 
1680809582793: 10 03 04 EF FE 46 98 9D DC 
1680809582941: 10 03 02 19 00 02 17 35 
1680809582943: 10 03 04 EF 64 46 98 BD F3 
1680809583091: 10 03 02 17 00 02 76 F6 
1680809583094: 10 03 04 EE CA 46 98 DD EE 
1680809583231: 10 03 02 15 00 02 D7 36 
1680809583234: 10 03 04 EE 30 46 98 FD DF 
1680809583381: 10 03 02 12 00 02 66 F7 
1680809583384: 10 03 04 ED 96 46 98 1D B8 
1680809583531: 10 03 02 10 00 02 C7 37 
1680809583534: 10 03 04 ED 30 46 98 FD 9B 
1680809583711: 10 03 02 0E 00 02 A7 31 
1680809583714: 10 03 04 EE CA 46 98 DD EE 
1680809583951: 10 03 02 0C 00 02 06 F1 
1680809583954: 10 03 04 EE 64 46 98 BC 0F 
1680809584091: 10 03 02 0A 00 02 E6 F0 
1680809584094: 10 03 04 ED FE 46 98 9C 64 
1680809584251: 10 03 02 08 00 02 47 30 
1680809584254: 10 03 04 ED 98 46 98 7C 7B 
1680809584401: 10 03 02 06 00 02 26 F3 
1680809584404: 10 03 04 ED 32 46 98 5C 5B 
1680809584531: 10 06 02 2A 28 04 B5 38 
1680809584534: 10 06 02 2A 28 04 B5 38 
1680809584691: 10 03 02 04 00 02 87 33 
1680809584694: 10 03 04 EE CC 46 98 3D EF 
1680809584841: 10 06 02 2A 28 06 34 F9 
1680809584844: 10 06 02 2A 28 06 34 F9 
1680809584991: 10 03 02 02 00 02 67 32 
1680809584994: 10 03 04 EE 66 46 98 1D CF 
1680809585131: 10 03 02 00 00 02 C6 F2 
1680809585134: 10 03 04 EE 00 46 98 FD D0 
1680809585291: 10 06 02 2A 28 07 F5 39 
1680809585294: 10 06 02 2A 28 07 F5 39 
1680809585491: 10 03 02 2A 00 01 A7 3B 
1680809585494: 10 03 02 28 07 1B 85 
1680809585641: 10 03 02 27 00 02 76 F9 
1680809585644: 10 03 04 F7 9A 46 98 DA A3 
1680809585801: 10 03 02 23 00 02 37 38 
1680809585804: 10 03 04 F8 66 46 98 19 87 
1680809585941: 10 03 02 25 00 02 D7 39 
1680809585944: 10 03 04 F9 00 46 98 F8 64 
1680809586091: 10 03 02 21 00 02 96 F8 
1680809586094: 10 03 04 F7 CC 46 98 3A B3 
1680809586241: 10 03 02 1F 00 02 F7 34 
1680809586244: 10 03 04 F7 32 46 98 5B 43 
1680809586391: 10 03 02 1D 00 02 56 F4 
1680809586394: 10 03 04 F6 98 46 98 7A 9F 
1680809586551: 10 03 02 1B 00 02 B6 F5 
1680809586554: 10 03 04 F5 FE 46 98 9A C4 
1680809586691: 10 03 02 19 00 02 17 35 
1680809586694: 10 03 04 F7 64 46 98 BB 53 
1680809586841: 10 03 02 17 00 02 76 F6 
1680809586844: 10 03 04 F6 CA 46 98 DB 4E 
1680809587011: 10 03 02 15 00 02 D7 36 
1680809587014: 10 03 04 F6 30 46 98 FB 7F 
1680809587151: 10 03 02 12 00 02 66 F7 
1680809587154: 10 03 04 F5 96 46 98 1B 18 
1680809587301: 10 03 02 10 00 02 C7 37 
1680809587304: 10 03 04 F5 30 46 98 FB 3B 
1680809587451: 10 03 02 0E 00 02 A7 31 
1680809587454: 10 03 04 F4 CA 46 98 DA F6 
1680809587601: 10 03 02 0C 00 02 06 F1 
1680809587604: 10 03 04 F4 64 46 98 BB 17 
1680809587781: 10 03 02 0A 00 02 E6 F0 
1680809587784: 10 03 04 F5 FE 46 98 9A C4 
1680809587981: 10 03 02 08 00 02 47 30 
1680809587984: 10 03 04 F5 98 46 98 7A DB 
1680809588101: 10 03 02 06 00 02 26 F3 
1680809588104: 10 03 04 F5 32 46 98 5A FB 
1680809588271: 10 03 02 04 00 02 87 33 
1680809588274: 10 03 04 F4 CC 46 98 3A F7 
1680809588431: 10 03 02 02 00 02 67 32 
1680809588434: 10 03 04 F4 66 46 98 1A D7 
1680809588551: 10 03 02 00 00 02 C6 F2 
1680809588554: 10 03 04 F4 00 46 98 FA C8 
1680809588761: 10 03 02 2A 00 01 A7 3B 
1680809588763: 10 03 02 28 07 1B 85 
1680809588911: 10 03 02 27 00 02 76 F9 
1680809588914: 10 03 04 FF 9A 46 98 D8 C3 
1680809589061: 10 03 02 23 00 02 37 38 
1680809589064: 10 03 04 FE 66 46 98 19 0F 
1680809589211: 10 03 02 25 00 02 D7 39 
1680809589214: 10 03 04 FF 00 46 98 F8 EC 
1680809589361: 10 03 02 21 00 02 96 F8 
1680809589364: 10 03 04 FD CC 46 98 39 6B 
1680809589511: 10 03 02 1F 00 02 F7 34 
1680809589514: 10 03 04 FD 32 46 98 58 9B 
1680809589661: 10 03 02 1D 00 02 56 F4 
1680809589664: 10 03 04 FC 98 46 98 79 47 
1680809589811: 10 03 02 1B 00 02 B6 F5 
1680809589814: 10 03 04 FD FE 46 98 98 A4 
1680809589971: 10 03 02 19 00 02 17 35 
1680809589973: 10 03 04 FD 64 46 98 B8 8B 
1680809590131: 10 03 02 17 00 02 76 F6 
1680809590134: 10 03 04 FC CA 46 98 D8 96 
1680809590281: 10 03 02 15 00 02 D7 36 
1680809590283: 10 03 04 FC 30 46 98 F8 A7 
1680809590421: 10 03 02 12 00 02 66 F7 
1680809590423: 10 03 04 FB 96 46 98 19 F0 
1680809590561: 10 03 02 10 00 02 C7 37 
1680809590563: 10 03 04 FB 30 46 98 F9 D3 
1680809590771: 10 03 02 0E 00 02 A7 31 
1680809590773: 10 03 04 FC CA 46 98 D8 96 
1680809590921: 10 03 02 0C 00 02 06 F1 
1680809590923: 10 03 04 FC 64 46 98 B9 77 
1680809591071: 10 03 02 0A 00 02 E6 F0 
1680809591073: 10 03 04 FB FE 46 98 98 2C 
1680809629521: M->S ID=16, Fn=3, Addr=543, Len=2, CRC=34F7
1680809629523: S->M ID=16, Fn=3, Cnt=4, CRC=9BBF
d[0]=19762
d[1]=18073
1680809629671: M->S ID=16, Fn=3, Addr=541, Len=2, CRC=F456
1680809629673: S->M ID=16, Fn=3, Cnt=4, CRC=479E
d[0]=19608
d[1]=18073
1680809629831: M->S ID=16, Fn=3, Addr=539, Len=2, CRC=F5B6
1680809629833: S->M ID=16, Fn=3, Cnt=4, CRC=A47F
d[0]=19966
d[1]=18073
1680809629981: M->S ID=16, Fn=3, Addr=537, Len=2, CRC=3517
1680809629983: S->M ID=16, Fn=3, Cnt=4, CRC=8B5F
d[0]=19812
d[1]=18073
1680809630131: M->S ID=16, Fn=3, Addr=535, Len=2, CRC=F676
1680809630133: S->M ID=16, Fn=3, Cnt=4, CRC=963F
d[0]=19658
d[1]=18073
1680809630281: M->S ID=16, Fn=3, Addr=533, Len=2, CRC=36D7
1680809630283: S->M ID=16, Fn=3, Cnt=4, CRC=A71F
d[0]=19504
d[1]=18073
1680809630431: M->S ID=16, Fn=3, Addr=530, Len=2, CRC=F766
1680809630433: S->M ID=16, Fn=3, Cnt=4, CRC=F0FE
d[0]=19350
d[1]=18073
1680809630591: M->S ID=16, Fn=3, Addr=528, Len=2, CRC=37C7
1680809630593: S->M ID=16, Fn=3, Cnt=4, CRC=D31E
d[0]=19248
d[1]=18073
1680809630741: M->S ID=16, Fn=3, Addr=526, Len=2, CRC=31A7
1680809630743: S->M ID=16, Fn=3, Cnt=4, CRC=963F
d[0]=19658
d[1]=18073
1680809630931: M->S ID=16, Fn=3, Addr=524, Len=2, CRC=F106
1680809630933: S->M ID=16, Fn=3, Cnt=4, CRC=775E
d[0]=19556
d[1]=18073
1680809631081: M->S ID=16, Fn=3, Addr=522, Len=2, CRC=F0E6
1680809631083: S->M ID=16, Fn=3, Cnt=4, CRC=2C7F
d[0]=19454
d[1]=18073
1680809631241: M->S ID=16, Fn=3, Addr=520, Len=2, CRC=3047
1680809631243: S->M ID=16, Fn=3, Cnt=4, CRC=339F
d[0]=19352
d[1]=18073
1680809631391: M->S ID=16, Fn=3, Addr=518, Len=2, CRC=F326
1680809631393: S->M ID=16, Fn=3, Cnt=4, CRC=13BF
d[0]=19250
d[1]=18073
1680809631541: M->S ID=16, Fn=3, Addr=516, Len=2, CRC=3387
1680809631543: S->M ID=16, Fn=3, Cnt=4, CRC=1FDF
d[0]=19148
d[1]=18073
1680809631691: M->S ID=16, Fn=3, Addr=514, Len=2, CRC=3267
1680809631693: S->M ID=16, Fn=3, Cnt=4, CRC=B7FF
d[0]=19558
d[1]=18073
1680809631841: M->S ID=16, Fn=3, Addr=512, Len=2, CRC=F2C6
1680809631843: S->M ID=16, Fn=3, Cnt=4, CRC=A81F
d[0]=19456
d[1]=18073
1680809632041: M->S ID=16, Fn=3, Addr=554, Len=1, CRC=3BA7
1680809632043: S->M ID=16, Fn=3, Cnt=2, CRC=851B
d[0]=10247
1680809632201: M->S ID=16, Fn=3, Addr=551, Len=2, CRC=F976
1680809632203: S->M ID=16, Fn=3, Cnt=4, CRC=DB38
d[0]=21914
d[1]=18073
1680809632411: M->S ID=16, Fn=3, Addr=547, Len=2, CRC=3837
1680809632413: S->M ID=16, Fn=3, Cnt=4, CRC=17F9
d[0]=21606
d[1]=18073
1680809632581: M->S ID=16, Fn=3, Addr=549, Len=2, CRC=39D7
1680809632583: S->M ID=16, Fn=3, Cnt=4, CRC=F418
d[0]=21760
d[1]=18073
1680809632701: M->S ID=16, Fn=3, Addr=545, Len=2, CRC=F896
1680809632703: S->M ID=16, Fn=3, Cnt=4, CRC=CBD8
d[0]=21964
d[1]=18073
1680809632871: M->S ID=16, Fn=3, Addr=543, Len=2, CRC=34F7
1680809632873: S->M ID=16, Fn=3, Cnt=4, CRC=3BB9
d[0]=21810
d[1]=18073
1680809633011: M->S ID=16, Fn=3, Addr=541, Len=2, CRC=F456
1680809633013: S->M ID=16, Fn=3, Cnt=4, CRC=E798
d[0]=21656
d[1]=18073
1680809633181: M->S ID=16, Fn=3, Addr=539, Len=2, CRC=F5B6
1680809633183: S->M ID=16, Fn=3, Cnt=4, CRC=8C79
d[0]=21502
d[1]=18073
1680809633311: M->S ID=16, Fn=3, Addr=537, Len=2, CRC=3517
1680809633313: S->M ID=16, Fn=3, Cnt=4, CRC=A359
d[0]=21348
d[1]=18073
1680809633471: M->S ID=16, Fn=3, Addr=535, Len=2, CRC=F676
1680809633473: S->M ID=16, Fn=3, Cnt=4, CRC=BE39
d[0]=21194
d[1]=18073
1680809633621: M->S ID=16, Fn=3, Addr=533, Len=2, CRC=36D7
1680809633623: S->M ID=16, Fn=3, Cnt=4, CRC=8F19
d[0]=21040
d[1]=18073
1680809633771: M->S ID=16, Fn=3, Addr=530, Len=2, CRC=F766
1680809633773: S->M ID=16, Fn=3, Cnt=4, CRC=50F8
d[0]=21398
d[1]=18073
1680809633911: M->S ID=16, Fn=3, Addr=528, Len=2, CRC=37C7
1680809633913: S->M ID=16, Fn=3, Cnt=4, CRC=7318
d[0]=21296
d[1]=18073
1680809634061: M->S ID=16, Fn=3, Addr=526, Len=2, CRC=31A7
1680809634063: S->M ID=16, Fn=3, Cnt=4, CRC=BE39
d[0]=21194
d[1]=18073
1680809634261: M->S ID=16, Fn=3, Addr=524, Len=2, CRC=F106
1680809634263: S->M ID=16, Fn=3, Cnt=4, CRC=5F58
d[0]=21092
d[1]=18073
1680809634401: M->S ID=16, Fn=3, Addr=522, Len=2, CRC=F0E6
1680809634403: S->M ID=16, Fn=3, Cnt=4, CRC=3478
d[0]=20990
d[1]=18073
1680809634551: M->S ID=16, Fn=3, Addr=520, Len=2, CRC=3047
1680809634553: S->M ID=16, Fn=3, Cnt=4, CRC=2B98
d[0]=20888
d[1]=18073
1680809634711: M->S ID=16, Fn=3, Addr=518, Len=2, CRC=F326
1680809634713: S->M ID=16, Fn=3, Cnt=4, CRC=B3B9
d[0]=21298
d[1]=18073
1680809634911: M->S ID=16, Fn=3, Addr=516, Len=2, CRC=3387
1680809634913: S->M ID=16, Fn=3, Cnt=4, CRC=BFD9
d[0]=21196
d[1]=18073
1680809635061: M->S ID=16, Fn=3, Addr=514, Len=2, CRC=3267
1680809635063: S->M ID=16, Fn=3, Cnt=4, CRC=9FF9
d[0]=21094
d[1]=18073
1680809635211: M->S ID=16, Fn=3, Addr=512, Len=2, CRC=F2C6
1680809635213: S->M ID=16, Fn=3, Cnt=4, CRC=8019
d[0]=20992
d[1]=18073
1680809635411: M->S ID=16, Fn=3, Addr=554, Len=1, CRC=3BA7
1680809635413: S->M ID=16, Fn=3, Cnt=2, CRC=851B
d[0]=10247
1680809635561: M->S ID=16, Fn=3, Addr=551, Len=2, CRC=F976
1680809635563: S->M ID=16, Fn=3, Cnt=4, CRC=333A
d[0]=23450
d[1]=18073
1680809635711: M->S ID=16, Fn=3, Addr=547, Len=2, CRC=3837
1680809635713: S->M ID=16, Fn=3, Cnt=4, CRC=77FB
d[0]=23654
d[1]=18073
1680809635881: M->S ID=16, Fn=3, Addr=549, Len=2, CRC=39D7
1680809635883: S->M ID=16, Fn=3, Cnt=4, CRC=941A
d[0]=23808
d[1]=18073
1680809636051: M->S ID=16, Fn=3, Addr=545, Len=2, CRC=F896
1680809636053: S->M ID=16, Fn=3, Cnt=4, CRC=23DA
d[0]=23500
d[1]=18073
1680809636181: M->S ID=16, Fn=3, Addr=543, Len=2, CRC=34F7
1680809636183: S->M ID=16, Fn=3, Cnt=4, CRC=D3BB
d[0]=23346
d[1]=18073
1680809636311: M->S ID=16, Fn=3, Addr=541, Len=2, CRC=F456
1680809636313: S->M ID=16, Fn=3, Cnt=4, CRC=0F9A
d[0]=23192
d[1]=18073
1680809636531: M->S ID=16, Fn=3, Addr=539, Len=2, CRC=F5B6
1680809636533: S->M ID=16, Fn=3, Cnt=4, CRC=547A
d[0]=23038
d[1]=18073
1680809636691: M->S ID=16, Fn=3, Addr=537, Len=2, CRC=3517
1680809636693: S->M ID=16, Fn=3, Cnt=4, CRC=C35B
d[0]=23396
d[1]=18073
1680809636821: M->S ID=16, Fn=3, Addr=535, Len=2, CRC=F676
1680809636823: S->M ID=16, Fn=3, Cnt=4, CRC=DE3B
d[0]=23242
d[1]=18073
1680809636971: M->S ID=16, Fn=3, Addr=533, Len=2, CRC=36D7
1680809636973: S->M ID=16, Fn=3, Cnt=4, CRC=EF1B
d[0]=23088
d[1]=18073
1680809637121: M->S ID=16, Fn=3, Addr=530, Len=2, CRC=F766
1680809637123: S->M ID=16, Fn=3, Cnt=4, CRC=88FB
d[0]=22934
d[1]=18073
1680809637271: M->S ID=16, Fn=3, Addr=528, Len=2, CRC=37C7
1680809637273: S->M ID=16, Fn=3, Cnt=4, CRC=AB1B
d[0]=22832
d[1]=18073
1680809637421: M->S ID=16, Fn=3, Addr=526, Len=2, CRC=31A7
1680809637423: S->M ID=16, Fn=3, Cnt=4, CRC=663A
d[0]=22730
d[1]=18073
1680809637571: M->S ID=16, Fn=3, Addr=524, Len=2, CRC=F106
1680809637573: S->M ID=16, Fn=3, Cnt=4, CRC=875B
d[0]=22628
d[1]=18073
1680809637741: M->S ID=16, Fn=3, Addr=522, Len=2, CRC=F0E6
1680809637744: S->M ID=16, Fn=3, Cnt=4, CRC=547A
d[0]=23038
d[1]=18073
1680809637871: M->S ID=16, Fn=3, Addr=520, Len=2, CRC=3047
1680809637873: S->M ID=16, Fn=3, Cnt=4, CRC=4B9A
d[0]=22936
d[1]=18073
1680809638031: M->S ID=16, Fn=3, Addr=518, Len=2, CRC=F326
1680809638034: S->M ID=16, Fn=3, Cnt=4, CRC=6BBA
d[0]=22834
d[1]=18073
1680809638181: M->S ID=16, Fn=3, Addr=516, Len=2, CRC=3387
1680809638184: S->M ID=16, Fn=3, Cnt=4, CRC=67DA
d[0]=22732
d[1]=18073
1680809638331: M->S ID=16, Fn=3, Addr=514, Len=2, CRC=3267
1680809638334: S->M ID=16, Fn=3, Cnt=4, CRC=47FA
d[0]=22630
d[1]=18073
1680809638481: M->S ID=16, Fn=3, Addr=512, Len=2, CRC=F2C6
1680809638484: S->M ID=16, Fn=3, Cnt=4, CRC=581A
d[0]=22528
d[1]=18073
1680809638691: M->S ID=16, Fn=3, Addr=554, Len=1, CRC=3BA7
1680809638694: S->M ID=16, Fn=3, Cnt=2, CRC=851B
d[0]=10247
1680809638831: M->S ID=16, Fn=3, Addr=551, Len=2, CRC=F976
1680809638834: S->M ID=16, Fn=3, Cnt=4, CRC=5337
d[0]=25498
d[1]=18073
1680809638981: M->S ID=16, Fn=3, Addr=547, Len=2, CRC=3837
1680809638984: S->M ID=16, Fn=3, Cnt=4, CRC=9FF6
d[0]=25190
d[1]=18073
1680809639131: M->S ID=16, Fn=3, Addr=549, Len=2, CRC=39D7
1680809639134: S->M ID=16, Fn=3, Cnt=4, CRC=7C17
d[0]=25344
d[1]=18073
1680809639281: M->S ID=16, Fn=3, Addr=545, Len=2, CRC=F896
1680809639284: S->M ID=16, Fn=3, Cnt=4, CRC=FBD6
d[0]=25036
d[1]=18073
1680809639431: M->S ID=16, Fn=3, Addr=543, Len=2, CRC=34F7
1680809639434: S->M ID=16, Fn=3, Cnt=4, CRC=0BB7
d[0]=24882
d[1]=18073
1680809639581: M->S ID=16, Fn=3, Addr=541, Len=2, CRC=F456
1680809639584: S->M ID=16, Fn=3, Cnt=4, CRC=D796
d[0]=24728
d[1]=18073
1680809639741: M->S ID=16, Fn=3, Addr=539, Len=2, CRC=F5B6
1680809639744: S->M ID=16, Fn=3, Cnt=4, CRC=3477
d[0]=25086
d[1]=18073
1680809639891: M->S ID=16, Fn=3, Addr=537, Len=2, CRC=3517
1680809639894: S->M ID=16, Fn=3, Cnt=4, CRC=1B57
d[0]=24932
d[1]=18073
1680809640051: M->S ID=16, Fn=3, Addr=535, Len=2, CRC=F676
1680809640054: S->M ID=16, Fn=3, Cnt=4, CRC=0637
d[0]=24778
d[1]=18073
1680809640191: M->S ID=16, Fn=3, Addr=533, Len=2, CRC=36D7
1680809640194: S->M ID=16, Fn=3, Cnt=4, CRC=3717
d[0]=24624
d[1]=18073
1680809640331: M->S ID=16, Fn=3, Addr=530, Len=2, CRC=F766
1680809640334: M->S ID=16, Fn=3, Addr=1119, Len=38470, CRC=FB99
1680809640511: M->S ID=16, Fn=3, Addr=528, Len=2, CRC=37C7
1680809640514: S->M ID=16, Fn=3, Cnt=4, CRC=231B
d[0]=24368
d[1]=18073
1680809640651: M->S ID=16, Fn=3, Addr=526, Len=2, CRC=31A7
1680809640654: S->M ID=16, Fn=3, Cnt=4, CRC=EE3A
d[0]=24266
d[1]=18073
1680809640791: M->S ID=16, Fn=3, Addr=524, Len=2, CRC=F106
1680809640794: S->M ID=16, Fn=3, Cnt=4, CRC=E756
d[0]=24676
d[1]=18073
1680809640951: M->S ID=16, Fn=3, Addr=522, Len=2, CRC=F0E6
1680809640954: S->M ID=16, Fn=3, Cnt=4, CRC=DC7A
d[0]=24574
d[1]=18073
1680809641091: M->S ID=16, Fn=3, Addr=520, Len=2, CRC=3047
1680809641094: S->M ID=16, Fn=3, Cnt=4, CRC=C39A
d[0]=24472
d[1]=18073
1680809641251: M->S ID=16, Fn=3, Addr=518, Len=2, CRC=F326
1680809641254: S->M ID=16, Fn=3, Cnt=4, CRC=E3BA
d[0]=24370
d[1]=18073
1680809641401: M->S ID=16, Fn=3, Addr=516, Len=2, CRC=3387
1680809641404: S->M ID=16, Fn=3, Cnt=4, CRC=EFDA
d[0]=24268
d[1]=18073
1680809641551: M->S ID=16, Fn=3, Addr=514, Len=2, CRC=3267
1680809641554: S->M ID=16, Fn=3, Cnt=4, CRC=CFFA
d[0]=24166
d[1]=18073
1680809641701: M->S ID=16, Fn=3, Addr=512, Len=2, CRC=F2C6
1680809641704: S->M ID=16, Fn=3, Cnt=4, CRC=3817
d[0]=24576
d[1]=18073
1680809641921: M->S ID=16, Fn=3, Addr=1026, Len=1, CRC=BB27
1680809641923: S->M ID=16, Fn=3, Cnt=2, CRC=89C5
d[0]=22
1680809642061: M->S ID=16, Fn=3, Addr=1026, Len=1, CRC=BB27
1680809642063: S->M ID=16, Fn=3, Cnt=2, CRC=89C5
d[0]=22
1680809642211: M->S ID=16, Fn=3, Addr=1025, Len=1, CRC=BBD7
1680809642213: S->M ID=16, Fn=3, Cnt=2, CRC=5F84
d[0]=33
1680809642361: M->S ID=16, Fn=3, Addr=1024, Len=1, CRC=7B86
1680809642363: S->M ID=16, Fn=3, Cnt=2, CRC=9045
d[0]=52
1680809642521: M->S ID=3, Fn=3, Addr=512, Len=1, CRC=5084
1680809642525: S->M ID=3, Fn=3, Cnt=2, CRC=84C1
d[0]=0
1680809642651: M->S ID=1, Fn=3, Addr=513, Len=1, CRC=72D4
1680809642655: S->M ID=1, Fn=3, Cnt=2, CRC=44B8
d[0]=0
1680809642791: M->S ID=1, Fn=3, Addr=512, Len=1, CRC=B285
1680809642795: S->M ID=1, Fn=3, Cnt=2, CRC=44B8
d[0]=0
1680809643001: M->S ID=16, Fn=3, Addr=1026, Len=1, CRC=BB27
1680809643003: S->M ID=16, Fn=3, Cnt=2, CRC=89C5
d[0]=22
1680809643151: M->S ID=16, Fn=3, Addr=1026, Len=1, CRC=BB27
1680809643153: S->M ID=16, Fn=3, Cnt=2, CRC=89C5
d[0]=22
1680809643301: M->S ID=16, Fn=3, Addr=1025, Len=1, CRC=BBD7
1680809643303: S->M ID=16, Fn=3, Cnt=2, CRC=5F84
d[0]=33
1680809643451: M->S ID=16, Fn=3, Addr=1024, Len=1, CRC=7B86
1680809643453: S->M ID=16, Fn=3, Cnt=2, CRC=5084
d[0]=53
1680809643621: M->S ID=3, Fn=3, Addr=512, Len=1, CRC=5084
1680809643625: S->M ID=3, Fn=3, Cnt=2, CRC=84C1
d[0]=0
1680809643751: M->S ID=1, Fn=3, Addr=513, Len=1, CRC=72D4
1680809643754: S->M ID=1, Fn=3, Cnt=2, CRC=44B8
d[0]=0
1680809643901: M->S ID=1, Fn=3, Addr=512, Len=1, CRC=B285
1680809643999: S->M ID=1, Fn=3, Cnt=2, CRC=44B8
d[0]=0
1680809644451: M<->S ID=1, Fn=6, Addr=512, Data=63, CRC=62C8
data=63
1680809644550: M<->S ID=1, Fn=6, Addr=512, Data=63, CRC=62C8
data=63
1680809645161: M->S ID=16, Fn=3, Addr=1026, Len=1, CRC=BB27
1680809645163: S->M ID=16, Fn=3, Cnt=2, CRC=89C5
d[0]=22
1680809645311: M->S ID=16, Fn=3, Addr=1026, Len=1, CRC=BB27
1680809645313: S->M ID=16, Fn=3, Cnt=2, CRC=89C5
d[0]=22
1680809645461: M->S ID=16, Fn=3, Addr=1025, Len=1, CRC=BBD7
1680809645463: S->M ID=16, Fn=3, Cnt=2, CRC=5F84
d[0]=33
1680809645611: M->S ID=16, Fn=3, Addr=1024, Len=1, CRC=7B86
1680809645613: S->M ID=16, Fn=3, Cnt=2, CRC=9105
d[0]=55
1680809645761: M->S ID=3, Fn=3, Addr=512, Len=1, CRC=5084
1680809645765: S->M ID=3, Fn=3, Cnt=2, CRC=84C1
d[0]=0
1680809645911: M->S ID=1, Fn=3, Addr=513, Len=1, CRC=72D4
1680809645915: S->M ID=1, Fn=3, Cnt=2, CRC=44B8
d[0]=0
1680809646061: M->S ID=1, Fn=3, Addr=512, Len=1, CRC=B285
1680809646064: S->M ID=1, Fn=3, Cnt=2, CRC=54F8
d[0]=63
1680809646261: M->S ID=16, Fn=3, Addr=1026, Len=1, CRC=BB27
1680809646263: S->M ID=16, Fn=3, Cnt=2, CRC=89C5
d[0]=22
1680809646411: M->S ID=16, Fn=3, Addr=1026, Len=1, CRC=BB27
1680809646413: S->M ID=16, Fn=3, Cnt=2, CRC=89C5
d[0]=22
1680809646561: M<->S ID=1, Fn=6, Addr=513, Data=34, CRC=AB59
data=34
1680809646659: M<->S ID=1, Fn=6, Addr=513, Data=34, CRC=AB59
data=34
1680809647121: M->S ID=16, Fn=3, Addr=1025, Len=1, CRC=BBD7
1680809647123: S->M ID=16, Fn=3, Cnt=2, CRC=5F84
d[0]=33
1680809647261: M->S ID=16, Fn=3, Addr=1024, Len=1, CRC=7B86
1680809647263: S->M ID=16, Fn=3, Cnt=2, CRC=5584
d[0]=57
1680809647421: M->S ID=3, Fn=3, Addr=512, Len=1, CRC=5084
1680809647424: S->M ID=3, Fn=3, Cnt=2, CRC=84C1
d[0]=0
1680809647581: M->S ID=1, Fn=3, Addr=512, Len=1, CRC=B285
1680809647585: S->M ID=1, Fn=3, Cnt=2, CRC=54F8
d[0]=63
1680809647771: M->S ID=16, Fn=3, Addr=1026, Len=1, CRC=BB27
1680809647773: S->M ID=16, Fn=3, Cnt=2, CRC=89C5
d[0]=22
1680809647931: M->S ID=16, Fn=3, Addr=1026, Len=1, CRC=BB27
1680809647933: S->M ID=16, Fn=3, Cnt=2, CRC=89C5
d[0]=22
1680809648091: M->S ID=16, Fn=3, Addr=1025, Len=1, CRC=BBD7
1680809648093: S->M ID=16, Fn=3, Cnt=2, CRC=5F84
d[0]=33
1680809648221: M->S ID=16, Fn=3, Addr=1024, Len=1, CRC=7B86
1680809648223: S->M ID=16, Fn=3, Cnt=2, CRC=5584
d[0]=57
1680809648371: M->S ID=3, Fn=3, Addr=512, Len=1, CRC=5084
1680809648374: S->M ID=3, Fn=3, Cnt=2, CRC=84C1
d[0]=0
1680809648521: M->S ID=1, Fn=3, Addr=513, Len=1, CRC=72D4
1680809648524: S->M ID=1, Fn=3, Cnt=2, CRC=5D38
d[0]=34
1680809648711: M->S ID=1, Fn=3, Addr=512, Len=1, CRC=B285
1680809648809: S->M ID=1, Fn=3, Cnt=2, CRC=54F8
d[0]=63
1680809649281: M->S ID=16, Fn=3, Addr=1026, Len=1, CRC=BB27
1680809649283: S->M ID=16, Fn=3, Cnt=2, CRC=89C5
d[0]=22
1680809649431: M->S ID=16, Fn=3, Addr=1026, Len=1, CRC=BB27
1680809649433: S->M ID=16, Fn=3, Cnt=2, CRC=89C5
d[0]=22
1680809649581: M->S ID=16, Fn=3, Addr=1025, Len=1, CRC=BBD7
1680809649583: S->M ID=16, Fn=3, Cnt=2, CRC=5F84
d[0]=33
1680809649731: M->S ID=16, Fn=3, Addr=1024, Len=1, CRC=7B86
1680809649733: S->M ID=16, Fn=3, Cnt=2, CRC=9405
d[0]=59
1680809649881: M->S ID=3, Fn=3, Addr=512, Len=1, CRC=5084
1680809649885: S->M ID=3, Fn=3, Cnt=2, CRC=84C1
d[0]=0
1680809650031: M->S ID=1, Fn=3, Addr=513, Len=1, CRC=72D4
1680809650035: S->M ID=1, Fn=3, Cnt=2, CRC=5D38
d[0]=34
1680809650201: M->S ID=1, Fn=3, Addr=512, Len=1, CRC=B285
1680809650204: S->M ID=1, Fn=3, Cnt=2, CRC=54F8
d[0]=63
1680809650391: M->S ID=16, Fn=3, Addr=1026, Len=1, CRC=BB27
1680809650393: S->M ID=16, Fn=3, Cnt=2, CRC=89C5
d[0]=22
1680809650531: M->S ID=16, Fn=3, Addr=1026, Len=1, CRC=BB27
1680809650533: S->M ID=16, Fn=3, Cnt=2, CRC=89C5
d[0]=22
1680809650681: M->S ID=16, Fn=3, Addr=1025, Len=1, CRC=BBD7
1680809650683: S->M ID=16, Fn=3, Cnt=2, CRC=5EC4
d[0]=34
1680809650831: M->S ID=16, Fn=3, Addr=1024, Len=1, CRC=7B86
1680809650833: S->M ID=16, Fn=3, Cnt=2, CRC=4744
d[0]=0
1680809650981: M<->S ID=1, Fn=6, Addr=513, Data=0, CRC=B2D9
data=0
1680809651029: M<->S ID=1, Fn=6, Addr=513, Data=0, CRC=B2D9
data=0
1680809651131: M->S ID=3, Fn=3, Addr=512, Len=1, CRC=5084
1680809651134: S->M ID=3, Fn=3, Cnt=2, CRC=84C1
d[0]=0
1680809651251: M->S ID=1, Fn=3, Addr=512, Len=1, CRC=B285
1680809651349: S->M ID=1, Fn=3, Cnt=2, CRC=54F8
d[0]=63
1680809651851: M->S ID=16, Fn=3, Addr=1026, Len=1, CRC=BB27
1680809651854: S->M ID=16, Fn=3, Cnt=2, CRC=89C5
d[0]=22
1680809651991: M->S ID=16, Fn=3, Addr=1026, Len=1, CRC=BB27
1680809651994: S->M ID=16, Fn=3, Cnt=2, CRC=89C5
d[0]=22
1680809652131: M->S ID=16, Fn=3, Addr=1025, Len=1, CRC=BBD7
1680809652134: S->M ID=16, Fn=3, Cnt=2, CRC=5EC4
d[0]=34
1680809652241: M->S ID=16, Fn=3, Addr=1024, Len=1, CRC=7B86
1680809652244: S->M ID=16, Fn=3, Cnt=2, CRC=86C5
d[0]=2
1680809652391: M->S ID=3, Fn=3, Addr=512, Len=1, CRC=5084
1680809652394: S->M ID=3, Fn=3, Cnt=2, CRC=84C1
d[0]=0
1680809652541: M->S ID=1, Fn=3, Addr=513, Len=1, CRC=72D4
1680809652545: S->M ID=1, Fn=3, Cnt=2, CRC=44B8
d[0]=0
1680809652791: M->S ID=1, Fn=3, Addr=512, Len=1, CRC=B285
1680809652889: S->M ID=1, Fn=3, Cnt=2, CRC=54F8
d[0]=63
1680809653291: M<->S ID=1, Fn=6, Addr=512, Data=0, CRC=7288
data=0
1680809653295: M<->S ID=1, Fn=6, Addr=512, Data=0, CRC=7288
data=0
1680809654001: M->S ID=16, Fn=3, Addr=1026, Len=1, CRC=BB27
1680809654003: S->M ID=16, Fn=3, Cnt=2, CRC=89C5
d[0]=22
1680809654161: M->S ID=16, Fn=3, Addr=1026, Len=1, CRC=BB27
1680809654163: S->M ID=16, Fn=3, Cnt=2, CRC=89C5
d[0]=22
1680809654291: M->S ID=16, Fn=3, Addr=1025, Len=1, CRC=BBD7
1680809654293: S->M ID=16, Fn=3, Cnt=2, CRC=5EC4
d[0]=34
1680809654451: M->S ID=16, Fn=3, Addr=1024, Len=1, CRC=7B86
1680809654453: S->M ID=16, Fn=3, Cnt=2, CRC=8445
d[0]=4
1680809654601: M->S ID=3, Fn=3, Addr=512, Len=1, CRC=5084
1680809654604: S->M ID=3, Fn=3, Cnt=2, CRC=84C1
d[0]=0
1680809654761: M->S ID=1, Fn=3, Addr=513, Len=1, CRC=72D4
1680809654764: S->M ID=1, Fn=3, Cnt=2, CRC=44B8
d[0]=0
1680809654901: M->S ID=1, Fn=3, Addr=512, Len=1, CRC=B285
1680809654999: S->M ID=1, Fn=3, Cnt=2, CRC=44B8
d[0]=0
1680809655501: M->S ID=16, Fn=3, Addr=554, Len=1, CRC=3BA7
1680809655503: S->M ID=16, Fn=3, Cnt=2, CRC=851B
d[0]=10247
1680809655651: M->S ID=16, Fn=3, Addr=551, Len=2, CRC=F976
1680809655653: S->M ID=16, Fn=3, Cnt=4, CRC=9300
d[0]=33690
d[1]=18073
1680809655821: M->S ID=16, Fn=3, Addr=547, Len=2, CRC=3837
1680809655823: S->M ID=16, Fn=3, Cnt=4, CRC=D7C1
d[0]=33894
d[1]=18073
1680809655961: M->S ID=16, Fn=3, Addr=549, Len=2, CRC=39D7
1680809655963: S->M ID=16, Fn=3, Cnt=4, CRC=3420
d[0]=34048
d[1]=18073
1680809656101: M->S ID=16, Fn=3, Addr=545, Len=2, CRC=F896
1680809656103: S->M ID=16, Fn=3, Cnt=4, CRC=83E0
d[0]=33740
d[1]=18073
1680809656261: M->S ID=16, Fn=3, Addr=543, Len=2, CRC=34F7
1680809656263: S->M ID=16, Fn=3, Cnt=4, CRC=7381
d[0]=33586
d[1]=18073
1680809656411: M->S ID=16, Fn=3, Addr=541, Len=2, CRC=F456
1680809656413: S->M ID=16, Fn=3, Cnt=4, CRC=AFA0
d[0]=33432
d[1]=18073
1680809656551: M->S ID=16, Fn=3, Addr=539, Len=2, CRC=F5B6
1680809656553: S->M ID=16, Fn=3, Cnt=4, CRC=F440
d[0]=33278
d[1]=18073
1680809656721: M<->S ID=16, Fn=6, Addr=554, Data=10279, CRC=E1F4
data=10279
1680809656723: M<->S ID=16, Fn=6, Addr=554, Data=10279, CRC=E1F4
data=10279
1680809657051: M<->S ID=16, Fn=6, Addr=554, Data=10295, CRC=2DF5
data=10295
1680809657053: M<->S ID=16, Fn=6, Addr=554, Data=10295, CRC=2DF5
data=10295
1680809657211: M->S ID=16, Fn=3, Addr=537, Len=2, CRC=3517
1680809657213: S->M ID=16, Fn=3, Cnt=4, CRC=6361
d[0]=33636
d[1]=18073
1680809657351: M->S ID=16, Fn=3, Addr=535, Len=2, CRC=F676
1680809657353: S->M ID=16, Fn=3, Cnt=4, CRC=7E01
d[0]=33482
d[1]=18073
1680809657521: M<->S ID=16, Fn=6, Addr=554, Data=10303, CRC=EBF4
data=10303
1680809657523: M<->S ID=16, Fn=6, Addr=554, Data=10303, CRC=EBF4
data=10303
1680809657651: M->S ID=16, Fn=3, Addr=533, Len=2, CRC=36D7
1680809657654: S->M ID=16, Fn=3, Cnt=4, CRC=4F21
d[0]=33328
d[1]=18073
1680809657761: M->S ID=16, Fn=3, Addr=530, Len=2, CRC=F766
1680809657763: S->M ID=16, Fn=3, Cnt=4, CRC=90C0
d[0]=33686
d[1]=18073
1680809657911: M->S ID=16, Fn=3, Addr=528, Len=2, CRC=37C7
1680809657913: S->M ID=16, Fn=3, Cnt=4, CRC=B320
d[0]=33584
d[1]=18073
1680809658071: M->S ID=16, Fn=3, Addr=526, Len=2, CRC=31A7
1680809658073: S->M ID=16, Fn=3, Cnt=4, CRC=7E01
d[0]=33482
d[1]=18073
1680809658261: M->S ID=16, Fn=3, Addr=524, Len=2, CRC=F106
1680809658263: S->M ID=16, Fn=3, Cnt=4, CRC=9F60
d[0]=33380
d[1]=18073
1680809658421: M->S ID=16, Fn=3, Addr=522, Len=2, CRC=F0E6
1680809658423: S->M ID=16, Fn=3, Cnt=4, CRC=F440
d[0]=33278
d[1]=18073
1680809658561: M<->S ID=16, Fn=6, Addr=554, Data=10299, CRC=28F5
data=10299
1680809658563: M<->S ID=16, Fn=6, Addr=554, Data=10299, CRC=28F5
data=10299
1680809658711: M->S ID=16, Fn=3, Addr=520, Len=2, CRC=3047
1680809658713: S->M ID=16, Fn=3, Cnt=4, CRC=53A1
d[0]=33688
d[1]=18073
1680809658861: M->S ID=16, Fn=3, Addr=518, Len=2, CRC=F326
1680809658863: S->M ID=16, Fn=3, Cnt=4, CRC=7381
d[0]=33586
d[1]=18073
1680809659011: M<->S ID=16, Fn=6, Addr=554, Data=10297, CRC=E974
data=10297
1680809659013: M<->S ID=16, Fn=6, Addr=554, Data=10297, CRC=E974
data=10297
1680809659161: M->S ID=16, Fn=3, Addr=516, Len=2, CRC=3387
1680809659163: S->M ID=16, Fn=3, Cnt=4, CRC=7FE1
d[0]=33484
d[1]=18073
1680809659321: M->S ID=16, Fn=3, Addr=514, Len=2, CRC=3267
1680809659323: S->M ID=16, Fn=3, Cnt=4, CRC=5FC1
d[0]=33382
d[1]=18073
1680809659481: M<->S ID=16, Fn=6, Addr=554, Data=10296, CRC=29B5
data=10296
1680809659483: M<->S ID=16, Fn=6, Addr=554, Data=10296, CRC=29B5
data=10296
1680809659611: M->S ID=16, Fn=3, Addr=512, Len=2, CRC=F2C6
1680809659613: S->M ID=16, Fn=3, Cnt=4, CRC=4021
d[0]=33280
d[1]=18073
1680809659831: M->S ID=16, Fn=3, Addr=554, Len=1, CRC=3BA7
1680809659833: S->M ID=16, Fn=3, Cnt=2, CRC=955B
d[0]=10296
1680809659971: M->S ID=16, Fn=3, Addr=551, Len=2, CRC=F976
1680809659973: S->M ID=16, Fn=3, Cnt=4, CRC=7B02
d[0]=36250
d[1]=18073
1680809660121: M->S ID=16, Fn=3, Addr=547, Len=2, CRC=3837
1680809660123: S->M ID=16, Fn=3, Cnt=4, CRC=B7C3
d[0]=35942
d[1]=18073
1680809660271: M->S ID=16, Fn=3, Addr=549, Len=2, CRC=39D7
1680809660273: S->M ID=16, Fn=3, Cnt=4, CRC=5422
d[0]=36096
d[1]=18073
1680809660421: M->S ID=16, Fn=3, Addr=545, Len=2, CRC=F896
1680809660423: S->M ID=16, Fn=3, Cnt=4, CRC=E3E2
d[0]=35788
d[1]=18073
1680809660571: M->S ID=16, Fn=3, Addr=543, Len=2, CRC=34F7
1680809660573: S->M ID=16, Fn=3, Cnt=4, CRC=1383
d[0]=35634
d[1]=18073
1680809660721: M->S ID=16, Fn=3, Addr=541, Len=2, CRC=F456
1680809660723: S->M ID=16, Fn=3, Cnt=4, CRC=47A2
d[0]=35992
d[1]=18073
1680809660871: M->S ID=16, Fn=3, Addr=539, Len=2, CRC=F5B6
1680809660873: S->M ID=16, Fn=3, Cnt=4, CRC=2C43
d[0]=35838
d[1]=18073
1680809661071: M->S ID=16, Fn=3, Addr=537, Len=2, CRC=3517
1680809661073: S->M ID=16, Fn=3, Cnt=4, CRC=0363
d[0]=35684
d[1]=18073
1680809661321: M->S ID=16, Fn=3, Addr=535, Len=2, CRC=F676
1680809661323: S->M ID=16, Fn=3, Cnt=4, CRC=1E03
d[0]=35530
d[1]=18073
1680809661531: M->S ID=16, Fn=3, Addr=533, Len=2, CRC=36D7
1680809661533: S->M ID=16, Fn=3, Cnt=4, CRC=2F23
d[0]=35376
d[1]=18073
1680809661771: M->S ID=16, Fn=3, Addr=530, Len=2, CRC=F766
1680809661773: S->M ID=16, Fn=3, Cnt=4, CRC=F0C2
d[0]=35734
d[1]=18073
1680809661931: M->S ID=16, Fn=3, Addr=528, Len=2, CRC=37C7
1680809661933: S->M ID=16, Fn=3, Cnt=4, CRC=D322
d[0]=35632
d[1]=18073
1680809662101: M->S ID=16, Fn=3, Addr=526, Len=2, CRC=31A7
1680809662103: S->M ID=16, Fn=3, Cnt=4, CRC=1E03
d[0]=35530
d[1]=18073
1680809662261: M->S ID=16, Fn=3, Addr=524, Len=2, CRC=F106
1680809662263: S->M ID=16, Fn=3, Cnt=4, CRC=FF62
d[0]=35428
d[1]=18073
1680809662391: M->S ID=16, Fn=3, Addr=522, Len=2, CRC=F0E6
1680809662393: S->M ID=16, Fn=3, Cnt=4, CRC=9442
d[0]=35326
d[1]=18073
1680809662551: M->S ID=16, Fn=3, Addr=520, Len=2, CRC=3047
1680809662553: S->M ID=16, Fn=3, Cnt=4, CRC=8BA2
d[0]=35224
d[1]=18073
1680809662681: M->S ID=16, Fn=3, Addr=518, Len=2, CRC=F326
1680809662683: S->M ID=16, Fn=3, Cnt=4, CRC=AB82
d[0]=35122
d[1]=18073
1680809662831: M->S ID=16, Fn=3, Addr=516, Len=2, CRC=3387
1680809662833: S->M ID=16, Fn=3, Cnt=4, CRC=1FE3
d[0]=35532
d[1]=18073
1680809663091: M->S ID=16, Fn=3, Addr=514, Len=2, CRC=3267
1680809663093: S->M ID=16, Fn=3, Cnt=4, CRC=3FC3
d[0]=35430
d[1]=18073
1680809663231: M->S ID=16, Fn=3, Addr=512, Len=2, CRC=F2C6
1680809663233: S->M ID=16, Fn=3, Cnt=4, CRC=2023
d[0]=35328
d[1]=18073
1680809663441: M->S ID=16, Fn=3, Addr=554, Len=1, CRC=3BA7
1680809663443: S->M ID=16, Fn=3, Cnt=2, CRC=955B
d[0]=10296
1680809663581: M->S ID=16, Fn=3, Addr=551, Len=2, CRC=F976
1680809663583: S->M ID=16, Fn=3, Cnt=4, CRC=5304
d[0]=37786
d[1]=18073
1680809663731: M->S ID=16, Fn=3, Addr=547, Len=2, CRC=3837
1680809663733: S->M ID=16, Fn=3, Cnt=4, CRC=17C5
d[0]=37990
d[1]=18073
1680809663881: M->S ID=16, Fn=3, Addr=549, Len=2, CRC=39D7
1680809663883: S->M ID=16, Fn=3, Cnt=4, CRC=F424
d[0]=38144
d[1]=18073
1680809664041: M->S ID=16, Fn=3, Addr=545, Len=2, CRC=F896
1680809664043: S->M ID=16, Fn=3, Cnt=4, CRC=43E4
d[0]=37836
d[1]=18073
